
T22F8 000:358 SEGGER J-Link V4.98e Log File (0001ms, 0288ms total)
T22F8 000:358 DLL Compiled: May  5 2015 11:00:52 (0001ms, 0288ms total)
T22F8 000:358 Logging started @ 2017-04-19 01:38 (0001ms, 0288ms total)
T22F8 000:359 JLINK_SetWarnOutHandler(...) (0000ms, 0288ms total)
T22F8 000:359 JLINK_OpenEx(...)
Firmware: J-Link ARM-OB STM32 compiled Aug 22 2012 19:52:04
Hardware: V7.00
S/N: 20090928
Feature(s): RDI,FlashDL,FlashBP,JFlash,GDBFull  returns O.K. (0272ms, 0560ms total)
T22F8 000:631 JLINK_SetErrorOutHandler(...) (0000ms, 0560ms total)
T22F8 000:631 JLINK_ExecCommand("ProjectFile = "C:\Users\Pei\Documents\stm32\stmProjects\FourAxis Poctol2.0\Prj\JLinkSettings.ini"", ...)Device "UNSPECIFIED" selected.  returns 0x00 (0017ms, 0577ms total)
T22F8 000:662 JLINK_ExecCommand("Device = STM32F407VGTx", ...)Device "UNSPECIFIED" selected.  returns 0x00 (0007ms, 0584ms total)
T22F8 000:669 JLINK_ExecCommand("DisableConnectionTimeout", ...)  returns 0x01 (0000ms, 0584ms total)
T22F8 000:669 JLINK_GetHardwareVersion()  returns 0x11170 (0000ms, 0584ms total)
T22F8 000:669 JLINK_GetDLLVersion()  returns 49805 (0000ms, 0584ms total)
T22F8 000:669 JLINK_GetFirmwareString(...) (0001ms, 0585ms total)
T22F8 000:685 JLINK_GetDLLVersion()  returns 49805 (0000ms, 0585ms total)
T22F8 000:685 JLINK_GetCompileDateTime() (0000ms, 0585ms total)
T22F8 000:691 JLINK_GetFirmwareString(...) (0000ms, 0585ms total)
T22F8 000:698 JLINK_GetHardwareVersion()  returns 0x11170 (0000ms, 0585ms total)
T22F8 000:740 JLINK_TIF_Select(JLINKARM_TIF_SWD)  returns 0x00 (0004ms, 0589ms total)
T22F8 000:744 JLINK_SetSpeed(5000) (0001ms, 0590ms total)
T22F8 000:745 JLINK_GetId() >0x108 TIF>Found SWD-DP with ID 0x2BA01477 >0x0D TIF> >0x21 TIF> >0x0D TIF> >0x28 TIF> >0x0D TIF> >0x28 TIF> >0x0D TIF> >0x21 TIF> >0x0D TIF> >0x28 TIF> >0x0D TIF> >0x21 TIF> >0x0D TIF> >0x21 TIF> >0x0D TIF> >0x21 TIF> >0x0D TIF> >0x21 TIF> >0x0D TIF> >0x28 TIF> >0x0D TIF> >0x28 TIF> >0x0D TIF> >0x21 TIF> >0x0D TIF> >0x28 TIF> >0x0D TIF> >0x28 TIF> >0x0D TIF> >0x28 TIF> >0x0D TIF> >0x21 TIF> >0x0D TIF> >0x21 TIF> >0x0D TIF> >0x28 TIF> >0x0D TIF> >0x21 TIF> >0x0D TIF>
 >0x21 TIF>Found Cortex-M4 r0p1, Little endian. -- CPU_WriteMem(4 bytes @ 0xE0002000) -- CPU_ReadMem(4 bytes @ 0xE000EDF0) -- CPU_WriteMem(4 bytes @ 0xE000EDF0) -- CPU_ReadMem(4 bytes @ 0xE0002000)FPUnit: 6 code (BP) slots and 2 literal slots -- CPU_ReadMem(4 bytes @ 0xE000EDFC) -- CPU_WriteMem(4 bytes @ 0xE000EDFC) -- CPU_ReadMem(4 bytes @ 0xE0001000) -- CPU_WriteMem(4 bytes @ 0xE0001000) -- CPU_ReadMem(4 bytes @ 0xE000ED88) -- CPU_WriteMem(4 bytes @ 0xE000ED88) -- CPU_ReadMem(4 bytes @ 0xE000ED88)
 -- CPU_WriteMem(4 bytes @ 0xE000ED88)CoreSight components:ROMTbl 0 @ E00FF000 -- CPU_ReadMem(16 bytes @ 0xE00FF000) -- CPU_ReadMem(16 bytes @ 0xE000EFF0) -- CPU_ReadMem(16 bytes @ 0xE000EFE0)ROMTbl 0 [0]: FFF0F000, CID: B105E00D, PID: 000BB00C SCS -- CPU_ReadMem(16 bytes @ 0xE0001FF0) -- CPU_ReadMem(16 bytes @ 0xE0001FE0)ROMTbl 0 [1]: FFF02000, CID: B105E00D, PID: 003BB002 DWT -- CPU_ReadMem(16 bytes @ 0xE0002FF0) -- CPU_ReadMem(16 bytes @ 0xE0002FE0)
ROMTbl 0 [2]: FFF03000, CID: B105E00D, PID: 002BB003 FPB -- CPU_ReadMem(16 bytes @ 0xE0000FF0) -- CPU_ReadMem(16 bytes @ 0xE0000FE0)ROMTbl 0 [3]: FFF01000, CID: B105E00D, PID: 003BB001 ITM -- CPU_ReadMem(16 bytes @ 0xE00FF010) -- CPU_ReadMem(16 bytes @ 0xE0040FF0) -- CPU_ReadMem(16 bytes @ 0xE0040FE0)ROMTbl 0 [4]: FFF41000, CID: B105900D, PID: 000BB9A1 TPIU -- CPU_ReadMem(16 bytes @ 0xE0041FF0) -- CPU_ReadMem(16 bytes @ 0xE0041FE0)ROMTbl 0 [5]: FFF42000, CID: B105900D, PID: 000BB925 ETM >0x0D TIF>
 >0x21 TIF>  returns 0x2BA01477 (0193ms, 0783ms total)
T22F8 000:938 JLINK_GetDLLVersion()  returns 49805 (0000ms, 0783ms total)
T22F8 000:938 JLINK_CORE_GetFound()  returns 0xE0000FF (0000ms, 0783ms total)
T22F8 000:938 JLINK_GetDebugInfo(0x100) -- Value=0xE00FF003  returns 0x00 (0000ms, 0783ms total)
T22F8 000:941 JLINK_ReadMem (0xE00FF000, 0x0020 Bytes, ...) -- CPU is running -- CPU_ReadMem(32 bytes @ 0xE00FF000) - Data: 03 F0 F0 FF 03 20 F0 FF 03 30 F0 FF 03 10 F0 FF ...  returns 0x00 (0002ms, 0785ms total)
T22F8 000:943 JLINK_ReadMem (0xE000EFF0, 0x0010 Bytes, ...) -- CPU is running -- CPU_ReadMem(16 bytes @ 0xE000EFF0) - Data: 0D 00 00 00 E0 00 00 00 05 00 00 00 B1 00 00 00  returns 0x00 (0001ms, 0786ms total)
T22F8 000:944 JLINK_ReadMem (0xE000EFD0, 0x0020 Bytes, ...) -- CPU is running -- CPU_ReadMem(32 bytes @ 0xE000EFD0) - Data: 04 00 00 00 00 00 00 00 00 00 00 00 00 00 00 00 ...  returns 0x00 (0001ms, 0787ms total)
T22F8 000:945 JLINK_ReadMem (0xE0001FF0, 0x0010 Bytes, ...) -- CPU is running -- CPU_ReadMem(16 bytes @ 0xE0001FF0) - Data: 0D 00 00 00 E0 00 00 00 05 00 00 00 B1 00 00 00  returns 0x00 (0001ms, 0788ms total)
T22F8 000:946 JLINK_ReadMem (0xE0001FD0, 0x0020 Bytes, ...) -- CPU is running -- CPU_ReadMem(32 bytes @ 0xE0001FD0) - Data: 04 00 00 00 00 00 00 00 00 00 00 00 00 00 00 00 ...  returns 0x00 (0001ms, 0789ms total)
T22F8 000:947 JLINK_ReadMem (0xE0002FF0, 0x0010 Bytes, ...) -- CPU is running -- CPU_ReadMem(16 bytes @ 0xE0002FF0) - Data: 0D 00 00 00 E0 00 00 00 05 00 00 00 B1 00 00 00  returns 0x00 (0001ms, 0790ms total)
T22F8 000:948 JLINK_ReadMem (0xE0002FD0, 0x0020 Bytes, ...) -- CPU is running -- CPU_ReadMem(32 bytes @ 0xE0002FD0) - Data: 04 00 00 00 00 00 00 00 00 00 00 00 00 00 00 00 ...  returns 0x00 (0001ms, 0791ms total)
T22F8 000:949 JLINK_ReadMem (0xE0000FF0, 0x0010 Bytes, ...) -- CPU is running -- CPU_ReadMem(16 bytes @ 0xE0000FF0) - Data: 0D 00 00 00 E0 00 00 00 05 00 00 00 B1 00 00 00  returns 0x00 (0001ms, 0792ms total)
T22F8 000:950 JLINK_ReadMem (0xE0000FD0, 0x0020 Bytes, ...) -- CPU is running -- CPU_ReadMem(32 bytes @ 0xE0000FD0) - Data: 04 00 00 00 00 00 00 00 00 00 00 00 00 00 00 00 ...  returns 0x00 (0001ms, 0793ms total)
T22F8 000:951 JLINK_ReadMem (0xE0040FF0, 0x0010 Bytes, ...) -- CPU is running -- CPU_ReadMem(16 bytes @ 0xE0040FF0) - Data: 0D 00 00 00 90 00 00 00 05 00 00 00 B1 00 00 00  returns 0x00 (0001ms, 0794ms total)
T22F8 000:952 JLINK_ReadMem (0xE0040FD0, 0x0020 Bytes, ...) -- CPU is running -- CPU_ReadMem(32 bytes @ 0xE0040FD0) - Data: 04 00 00 00 00 00 00 00 00 00 00 00 00 00 00 00 ...  returns 0x00 (0001ms, 0795ms total)
T22F8 000:953 JLINK_ReadMem (0xE0041FF0, 0x0010 Bytes, ...) -- CPU is running -- CPU_ReadMem(16 bytes @ 0xE0041FF0) - Data: 0D 00 00 00 90 00 00 00 05 00 00 00 B1 00 00 00  returns 0x00 (0001ms, 0796ms total)
T22F8 000:954 JLINK_ReadMem (0xE0041FD0, 0x0020 Bytes, ...) -- CPU is running -- CPU_ReadMem(32 bytes @ 0xE0041FD0) - Data: 04 00 00 00 00 00 00 00 00 00 00 00 00 00 00 00 ...  returns 0x00 (0002ms, 0798ms total)
T22F8 000:956 JLINK_ReadMemU32(0xE000EF40, 0x0001 Items, ...) -- CPU is running -- CPU_ReadMem(4 bytes @ 0xE000EF40) - Data: 21 00 11 10  returns 0x01 (0001ms, 0799ms total)
T22F8 000:957 JLINK_ReadMemU32(0xE000EF44, 0x0001 Items, ...) -- CPU is running -- CPU_ReadMem(4 bytes @ 0xE000EF44) - Data: 11 00 00 11  returns 0x01 (0001ms, 0800ms total)
T22F8 000:958 JLINK_ReadMemU32(0xE000ED00, 0x0001 Items, ...) -- CPU is running -- CPU_ReadMem(4 bytes @ 0xE000ED00) - Data: 41 C2 0F 41  returns 0x01 (0001ms, 0801ms total)
T22F8 000:959 JLINK_SetResetType(JLINKARM_RESET_TYPE_NORMAL)  returns JLINKARM_RESET_TYPE_NORMAL (0000ms, 0801ms total)
T22F8 000:959 JLINK_Reset() -- CPU is running -- CPU_WriteMem(4 bytes @ 0xE000EDF0) -- CPU is running -- CPU_WriteMem(4 bytes @ 0xE000EDFC) >0x35 TIF> -- CPU is running -- CPU_WriteMem(4 bytes @ 0xE000ED0C) -- CPU is running -- CPU_ReadMem(4 bytes @ 0xE000EDF0) -- CPU is running -- CPU_ReadMem(4 bytes @ 0xE000EDF0) -- CPU is running -- CPU_WriteMem(4 bytes @ 0xE000EDF0) -- CPU is running -- CPU_WriteMem(4 bytes @ 0xE000EDFC) -- CPU is running -- CPU_ReadMem(4 bytes @ 0xE000EDF0)
 -- CPU_WriteMem(4 bytes @ 0xE0002000) -- CPU_ReadMem(4 bytes @ 0xE000EDFC) -- CPU_ReadMem(4 bytes @ 0xE0001000) (0024ms, 0825ms total)
T22F8 000:983 JLINK_Halt()  returns 0x00 (0000ms, 0825ms total)
T22F8 000:983 JLINK_IsHalted()  returns TRUE (0000ms, 0825ms total)
T22F8 000:983 JLINK_ReadMemU32(0xE000EDF0, 0x0001 Items, ...) -- CPU_ReadMem(4 bytes @ 0xE000EDF0) - Data: 03 00 03 00  returns 0x01 (0002ms, 0827ms total)
T22F8 000:985 JLINK_WriteU32(0xE000EDF0, 0xA05F0003) -- CPU_WriteMem(4 bytes @ 0xE000EDF0)  returns 0x00 (0001ms, 0828ms total)
T22F8 000:986 JLINK_WriteU32(0xE000EDFC, 0x01000000) -- CPU_WriteMem(4 bytes @ 0xE000EDFC)  returns 0x00 (0001ms, 0829ms total)
T22F8 001:002 JLINK_GetHWStatus(...)  returns 0x00 (0002ms, 0831ms total)
T22F8 001:038 JLINK_GetNumBPUnits(Type = 0xFFFFFF00)  returns 0x06 (0001ms, 0832ms total)
T22F8 001:039 JLINK_GetNumBPUnits(Type = 0xF0)  returns 0x2000 (0000ms, 0832ms total)
T22F8 001:039 JLINK_GetNumWPUnits()  returns 0x04 (0001ms, 0833ms total)
T22F8 001:052 JLINK_GetSpeed()  returns 0xFA0 (0000ms, 0833ms total)
T22F8 001:061 JLINK_ReadMemU32(0xE000E004, 0x0001 Items, ...) -- CPU_ReadMem(4 bytes @ 0xE000E004) - Data: 02 00 00 00  returns 0x01 (0002ms, 0835ms total)
T22F8 001:063 JLINK_ReadMemU32(0xE000E004, 0x0001 Items, ...) -- CPU_ReadMem(4 bytes @ 0xE000E004) - Data: 02 00 00 00  returns 0x01 (0001ms, 0836ms total)
T22F8 001:064 JLINK_WriteMem(0xE0001000, 0x001C Bytes, ...) - Data: 01 00 00 00 00 00 00 00 00 00 00 00 00 00 00 00 ... -- CPU_WriteMem(28 bytes @ 0xE0001000)  returns 0x1C (0002ms, 0838ms total)
T22F8 001:066 JLINK_ReadMem (0xE0001000, 0x001C Bytes, ...) -- CPU_ReadMem(28 bytes @ 0xE0001000) - Data: 01 00 00 40 00 00 00 00 00 00 00 00 00 00 00 00 ...  returns 0x00 (0002ms, 0840ms total)
T22F8 001:068 JLINK_Halt()  returns 0x00 (0000ms, 0840ms total)
T22F8 001:068 JLINK_IsHalted()  returns TRUE (0000ms, 0840ms total)
T22F8 001:073 JLINK_WriteMem(0x20000000, 0x0180 Bytes, ...) - Data: 00 BE 0A E0 0D 78 2D 06 68 40 08 24 40 00 00 D3 ... -- CPU_WriteMem(384 bytes @ 0x20000000)  returns 0x180 (0005ms, 0845ms total)
T22F8 001:078 JLINK_WriteReg(R0, 0x08000000)  returns 0x00 (0000ms, 0845ms total)
T22F8 001:078 JLINK_WriteReg(R1, 0x007A1200)  returns 0x00 (0001ms, 0846ms total)
T22F8 001:079 JLINK_WriteReg(R2, 0x00000001)  returns 0x00 (0000ms, 0846ms total)
T22F8 001:079 JLINK_WriteReg(R3, 0x00000000)  returns 0x00 (0000ms, 0846ms total)
T22F8 001:079 JLINK_WriteReg(R4, 0x00000000)  returns 0x00 (0000ms, 0846ms total)
T22F8 001:079 JLINK_WriteReg(R5, 0x00000000)  returns 0x00 (0000ms, 0846ms total)
T22F8 001:079 JLINK_WriteReg(R6, 0x00000000)  returns 0x00 (0000ms, 0846ms total)
T22F8 001:079 JLINK_WriteReg(R7, 0x00000000)  returns 0x00 (0000ms, 0846ms total)
T22F8 001:079 JLINK_WriteReg(R8, 0x00000000)  returns 0x00 (0000ms, 0846ms total)
T22F8 001:079 JLINK_WriteReg(R9, 0x2000017C)  returns 0x00 (0000ms, 0846ms total)
T22F8 001:079 JLINK_WriteReg(R10, 0x00000000)  returns 0x00 (0000ms, 0846ms total)
T22F8 001:079 JLINK_WriteReg(R11, 0x00000000)  returns 0x00 (0000ms, 0846ms total)
T22F8 001:079 JLINK_WriteReg(R12, 0x00000000)  returns 0x00 (0000ms, 0846ms total)
T22F8 001:079 JLINK_WriteReg(R13 (SP), 0x20001000)  returns 0x00 (0000ms, 0846ms total)
T22F8 001:079 JLINK_WriteReg(R14, 0x20000001)  returns 0x00 (0000ms, 0846ms total)
T22F8 001:079 JLINK_WriteReg(R15 (PC), 0x20000054)  returns 0x00 (0000ms, 0846ms total)
T22F8 001:079 JLINK_WriteReg(XPSR, 0x01000000)  returns 0x00 (0000ms, 0846ms total)
T22F8 001:079 JLINK_WriteReg(MSP, 0x20001000)  returns 0x00 (0000ms, 0846ms total)
T22F8 001:080 JLINK_WriteReg(PSP, 0x20001000)  returns 0x00 (0000ms, 0847ms total)
T22F8 001:080 JLINK_WriteReg(CFBP, 0x00000000)  returns 0x00 (0000ms, 0847ms total)
T22F8 001:080 JLINK_SetBPEx(Addr = 0x20000000, Type = 0xFFFFFFF2) -- CPU_ReadMem(4 bytes @ 0x20000000) -- CPU_WriteMem(4 bytes @ 0x20000000) -- CPU_ReadMem(4 bytes @ 0x20000000) -- CPU_WriteMem(4 bytes @ 0x20000000) -- CPU_ReadMem(2 bytes @ 0x20000000)  returns 0x00000001 (0005ms, 0852ms total)
T22F8 001:085 JLINK_Go() -- CPU_WriteMem(2 bytes @ 0x20000000) -- CPU_ReadMem(4 bytes @ 0xE0001000) -- CPU_WriteMem(4 bytes @ 0xE0002008) -- CPU_WriteMem(4 bytes @ 0xE000200C) -- CPU_WriteMem(4 bytes @ 0xE0002010) -- CPU_WriteMem(4 bytes @ 0xE0002014) -- CPU_WriteMem(4 bytes @ 0xE0002018) -- CPU_WriteMem(4 bytes @ 0xE000201C) -- CPU_WriteMem(4 bytes @ 0xE0001004) (0012ms, 0864ms total)
T22F8 001:097 JLINK_IsHalted() -- CPU_ReadMem(2 bytes @ 0x20000000)  returns TRUE (0006ms, 0870ms total)
T22F8 001:103 JLINK_ReadReg(R15 (PC))  returns 0x20000000 (0000ms, 0864ms total)
T22F8 001:103 JLINK_ClrBPEx(BPHandle = 0x00000001)  returns 0x00 (0000ms, 0864ms total)
T22F8 001:103 JLINK_ReadReg(R0)  returns 0x00000000 (0000ms, 0864ms total)
T22F8 001:104 JLINK_WriteReg(R0, 0x08000000)  returns 0x00 (0000ms, 0864ms total)
T22F8 001:104 JLINK_WriteReg(R1, 0x00004000)  returns 0x00 (0000ms, 0864ms total)
T22F8 001:104 JLINK_WriteReg(R2, 0x000000FF)  returns 0x00 (0000ms, 0864ms total)
T22F8 001:104 JLINK_WriteReg(R3, 0x00000000)  returns 0x00 (0000ms, 0864ms total)
T22F8 001:104 JLINK_WriteReg(R4, 0x00000000)  returns 0x00 (0000ms, 0864ms total)
T22F8 001:104 JLINK_WriteReg(R5, 0x00000000)  returns 0x00 (0001ms, 0865ms total)
T22F8 001:105 JLINK_WriteReg(R6, 0x00000000)  returns 0x00 (0000ms, 0865ms total)
T22F8 001:105 JLINK_WriteReg(R7, 0x00000000)  returns 0x00 (0000ms, 0865ms total)
T22F8 001:105 JLINK_WriteReg(R8, 0x00000000)  returns 0x00 (0000ms, 0865ms total)
T22F8 001:105 JLINK_WriteReg(R9, 0x2000017C)  returns 0x00 (0000ms, 0865ms total)
T22F8 001:105 JLINK_WriteReg(R10, 0x00000000)  returns 0x00 (0000ms, 0865ms total)
T22F8 001:105 JLINK_WriteReg(R11, 0x00000000)  returns 0x00 (0000ms, 0865ms total)
T22F8 001:105 JLINK_WriteReg(R12, 0x00000000)  returns 0x00 (0000ms, 0865ms total)
T22F8 001:105 JLINK_WriteReg(R13 (SP), 0x20001000)  returns 0x00 (0000ms, 0865ms total)
T22F8 001:105 JLINK_WriteReg(R14, 0x20000001)  returns 0x00 (0000ms, 0865ms total)
T22F8 001:105 JLINK_WriteReg(R15 (PC), 0x20000020)  returns 0x00 (0001ms, 0866ms total)
T22F8 001:106 JLINK_WriteReg(XPSR, 0x01000000)  returns 0x00 (0000ms, 0866ms total)
T22F8 001:106 JLINK_WriteReg(MSP, 0x20001000)  returns 0x00 (0000ms, 0866ms total)
T22F8 001:106 JLINK_WriteReg(PSP, 0x20001000)  returns 0x00 (0000ms, 0866ms total)
T22F8 001:106 JLINK_WriteReg(CFBP, 0x00000000)  returns 0x00 (0000ms, 0866ms total)
T22F8 001:106 JLINK_SetBPEx(Addr = 0x20000000, Type = 0xFFFFFFF2)  returns 0x00000002 (0000ms, 0866ms total)
T22F8 001:106 JLINK_Go() -- CPU_ReadMem(4 bytes @ 0xE0001000) (0004ms, 0870ms total)
T22F8 001:111 JLINK_IsHalted() -- CPU_ReadMem(2 bytes @ 0x20000000)  returns TRUE (0004ms, 0875ms total)
T22F8 001:115 JLINK_ReadReg(R15 (PC))  returns 0x20000000 (0000ms, 0871ms total)
T22F8 001:115 JLINK_ClrBPEx(BPHandle = 0x00000002)  returns 0x00 (0001ms, 0872ms total)
T22F8 001:116 JLINK_ReadReg(R0)  returns 0x00000001 (0000ms, 0872ms total)
T22F8 001:116 JLINK_WriteReg(R0, 0x08000000)  returns 0x00 (0000ms, 0872ms total)
T22F8 001:116 JLINK_WriteReg(R1, 0x00004000)  returns 0x00 (0000ms, 0872ms total)
T22F8 001:116 JLINK_WriteReg(R2, 0x000000FF)  returns 0x00 (0000ms, 0872ms total)
T22F8 001:116 JLINK_WriteReg(R3, 0x00000000)  returns 0x00 (0000ms, 0872ms total)
T22F8 001:116 JLINK_WriteReg(R4, 0x00000000)  returns 0x00 (0000ms, 0872ms total)
T22F8 001:116 JLINK_WriteReg(R5, 0x00000000)  returns 0x00 (0000ms, 0872ms total)
T22F8 001:116 JLINK_WriteReg(R6, 0x00000000)  returns 0x00 (0000ms, 0872ms total)
T22F8 001:116 JLINK_WriteReg(R7, 0x00000000)  returns 0x00 (0000ms, 0872ms total)
T22F8 001:116 JLINK_WriteReg(R8, 0x00000000)  returns 0x00 (0001ms, 0873ms total)
T22F8 001:117 JLINK_WriteReg(R9, 0x2000017C)  returns 0x00 (0000ms, 0873ms total)
T22F8 001:117 JLINK_WriteReg(R10, 0x00000000)  returns 0x00 (0000ms, 0873ms total)
T22F8 001:117 JLINK_WriteReg(R11, 0x00000000)  returns 0x00 (0000ms, 0873ms total)
T22F8 001:117 JLINK_WriteReg(R12, 0x00000000)  returns 0x00 (0000ms, 0873ms total)
T22F8 001:117 JLINK_WriteReg(R13 (SP), 0x20001000)  returns 0x00 (0000ms, 0873ms total)
T22F8 001:117 JLINK_WriteReg(R14, 0x20000001)  returns 0x00 (0000ms, 0873ms total)
T22F8 001:117 JLINK_WriteReg(R15 (PC), 0x200000BC)  returns 0x00 (0000ms, 0873ms total)
T22F8 001:117 JLINK_WriteReg(XPSR, 0x01000000)  returns 0x00 (0000ms, 0873ms total)
T22F8 001:117 JLINK_WriteReg(MSP, 0x20001000)  returns 0x00 (0000ms, 0873ms total)
T22F8 001:117 JLINK_WriteReg(PSP, 0x20001000)  returns 0x00 (0000ms, 0873ms total)
T22F8 001:117 JLINK_WriteReg(CFBP, 0x00000000)  returns 0x00 (0001ms, 0874ms total)
T22F8 001:118 JLINK_SetBPEx(Addr = 0x20000000, Type = 0xFFFFFFF2)  returns 0x00000003 (0000ms, 0874ms total)
T22F8 001:118 JLINK_Go() -- CPU_ReadMem(4 bytes @ 0xE0001000) (0006ms, 0880ms total)
T22F8 001:124 JLINK_IsHalted()  returns FALSE (0002ms, 0882ms total)
T22F8 001:358 JLINK_IsHalted()  returns FALSE (0001ms, 0881ms total)
T22F8 001:366 JLINK_IsHalted()  returns FALSE (0001ms, 0881ms total)
T22F8 001:368 JLINK_IsHalted()  returns FALSE (0001ms, 0881ms total)
T22F8 001:370 JLINK_IsHalted()  returns FALSE (0001ms, 0881ms total)
T22F8 001:379 JLINK_IsHalted()  returns FALSE (0001ms, 0881ms total)
T22F8 001:381 JLINK_IsHalted()  returns FALSE (0001ms, 0881ms total)
T22F8 001:383 JLINK_IsHalted()  returns FALSE (0001ms, 0881ms total)
T22F8 001:385 JLINK_IsHalted()  returns FALSE (0001ms, 0881ms total)
T22F8 001:428 JLINK_IsHalted()  returns FALSE (0001ms, 0881ms total)
T22F8 001:430 JLINK_IsHalted()  returns FALSE (0001ms, 0881ms total)
T22F8 001:432 JLINK_IsHalted()  returns FALSE (0001ms, 0881ms total)
T22F8 001:440 JLINK_IsHalted()  returns FALSE (0001ms, 0881ms total)
T22F8 001:442 JLINK_IsHalted()  returns FALSE (0001ms, 0881ms total)
T22F8 001:444 JLINK_IsHalted()  returns FALSE (0001ms, 0881ms total)
T22F8 001:446 JLINK_IsHalted()  returns FALSE (0001ms, 0881ms total)
T22F8 001:448 JLINK_IsHalted()  returns FALSE (0001ms, 0881ms total)
T22F8 001:450 JLINK_IsHalted()  returns FALSE (0001ms, 0881ms total)
T22F8 001:452 JLINK_IsHalted()  returns FALSE (0001ms, 0881ms total)
T22F8 001:461 JLINK_IsHalted()  returns FALSE (0001ms, 0881ms total)
T22F8 001:463 JLINK_IsHalted()  returns FALSE (0001ms, 0881ms total)
T22F8 001:465 JLINK_IsHalted()  returns FALSE (0001ms, 0881ms total)
T22F8 002:073 JLINK_IsHalted() -- CPU_ReadMem(2 bytes @ 0x20000000)  returns TRUE (0008ms, 0888ms total)
T22F8 002:081 JLINK_ReadReg(R15 (PC))  returns 0x20000000 (0000ms, 0880ms total)
T22F8 002:081 JLINK_ClrBPEx(BPHandle = 0x00000003)  returns 0x00 (0000ms, 0880ms total)
T22F8 002:081 JLINK_ReadReg(R0)  returns 0x00000000 (0000ms, 0880ms total)
T22F8 002:083 JLINK_WriteReg(R0, 0x08004000)  returns 0x00 (0000ms, 0881ms total)
T22F8 002:083 JLINK_WriteReg(R1, 0x00004000)  returns 0x00 (0000ms, 0881ms total)
T22F8 002:083 JLINK_WriteReg(R2, 0x000000FF)  returns 0x00 (0000ms, 0881ms total)
T22F8 002:083 JLINK_WriteReg(R3, 0x00000000)  returns 0x00 (0000ms, 0881ms total)
T22F8 002:083 JLINK_WriteReg(R4, 0x00000000)  returns 0x00 (0000ms, 0881ms total)
T22F8 002:083 JLINK_WriteReg(R5, 0x00000000)  returns 0x00 (0000ms, 0881ms total)
T22F8 002:083 JLINK_WriteReg(R6, 0x00000000)  returns 0x00 (0000ms, 0881ms total)
T22F8 002:083 JLINK_WriteReg(R7, 0x00000000)  returns 0x00 (0000ms, 0881ms total)
T22F8 002:083 JLINK_WriteReg(R8, 0x00000000)  returns 0x00 (0001ms, 0882ms total)
T22F8 002:084 JLINK_WriteReg(R9, 0x2000017C)  returns 0x00 (0000ms, 0882ms total)
T22F8 002:084 JLINK_WriteReg(R10, 0x00000000)  returns 0x00 (0000ms, 0882ms total)
T22F8 002:084 JLINK_WriteReg(R11, 0x00000000)  returns 0x00 (0000ms, 0882ms total)
T22F8 002:084 JLINK_WriteReg(R12, 0x00000000)  returns 0x00 (0000ms, 0882ms total)
T22F8 002:084 JLINK_WriteReg(R13 (SP), 0x20001000)  returns 0x00 (0000ms, 0882ms total)
T22F8 002:084 JLINK_WriteReg(R14, 0x20000001)  returns 0x00 (0000ms, 0882ms total)
T22F8 002:084 JLINK_WriteReg(R15 (PC), 0x20000020)  returns 0x00 (0000ms, 0882ms total)
T22F8 002:084 JLINK_WriteReg(XPSR, 0x01000000)  returns 0x00 (0000ms, 0882ms total)
T22F8 002:085 JLINK_WriteReg(MSP, 0x20001000)  returns 0x00 (0000ms, 0882ms total)
T22F8 002:085 JLINK_WriteReg(PSP, 0x20001000)  returns 0x00 (0000ms, 0882ms total)
T22F8 002:085 JLINK_WriteReg(CFBP, 0x00000000)  returns 0x00 (0000ms, 0882ms total)
T22F8 002:085 JLINK_SetBPEx(Addr = 0x20000000, Type = 0xFFFFFFF2)  returns 0x00000004 (0000ms, 0882ms total)
T22F8 002:085 JLINK_Go() -- CPU_ReadMem(4 bytes @ 0xE0001000) (0005ms, 0887ms total)
T22F8 002:090 JLINK_IsHalted() -- CPU_ReadMem(2 bytes @ 0x20000000)  returns TRUE (0005ms, 0892ms total)
T22F8 002:095 JLINK_ReadReg(R15 (PC))  returns 0x20000000 (0001ms, 0888ms total)
T22F8 002:096 JLINK_ClrBPEx(BPHandle = 0x00000004)  returns 0x00 (0000ms, 0888ms total)
T22F8 002:096 JLINK_ReadReg(R0)  returns 0x00000001 (0000ms, 0888ms total)
T22F8 002:096 JLINK_WriteReg(R0, 0x08004000)  returns 0x00 (0000ms, 0888ms total)
T22F8 002:096 JLINK_WriteReg(R1, 0x00004000)  returns 0x00 (0000ms, 0888ms total)
T22F8 002:096 JLINK_WriteReg(R2, 0x000000FF)  returns 0x00 (0000ms, 0888ms total)
T22F8 002:096 JLINK_WriteReg(R3, 0x00000000)  returns 0x00 (0000ms, 0888ms total)
T22F8 002:096 JLINK_WriteReg(R4, 0x00000000)  returns 0x00 (0000ms, 0888ms total)
T22F8 002:096 JLINK_WriteReg(R5, 0x00000000)  returns 0x00 (0001ms, 0889ms total)
T22F8 002:097 JLINK_WriteReg(R6, 0x00000000)  returns 0x00 (0000ms, 0889ms total)
T22F8 002:097 JLINK_WriteReg(R7, 0x00000000)  returns 0x00 (0000ms, 0889ms total)
T22F8 002:097 JLINK_WriteReg(R8, 0x00000000)  returns 0x00 (0000ms, 0889ms total)
T22F8 002:097 JLINK_WriteReg(R9, 0x2000017C)  returns 0x00 (0000ms, 0889ms total)
T22F8 002:097 JLINK_WriteReg(R10, 0x00000000)  returns 0x00 (0000ms, 0889ms total)
T22F8 002:097 JLINK_WriteReg(R11, 0x00000000)  returns 0x00 (0000ms, 0889ms total)
T22F8 002:097 JLINK_WriteReg(R12, 0x00000000)  returns 0x00 (0000ms, 0889ms total)
T22F8 002:097 JLINK_WriteReg(R13 (SP), 0x20001000)  returns 0x00 (0000ms, 0889ms total)
T22F8 002:098 JLINK_WriteReg(R14, 0x20000001)  returns 0x00 (0000ms, 0890ms total)
T22F8 002:098 JLINK_WriteReg(R15 (PC), 0x200000BC)  returns 0x00 (0000ms, 0890ms total)
T22F8 002:098 JLINK_WriteReg(XPSR, 0x01000000)  returns 0x00 (0000ms, 0890ms total)
T22F8 002:098 JLINK_WriteReg(MSP, 0x20001000)  returns 0x00 (0000ms, 0890ms total)
T22F8 002:098 JLINK_WriteReg(PSP, 0x20001000)  returns 0x00 (0000ms, 0890ms total)
T22F8 002:098 JLINK_WriteReg(CFBP, 0x00000000)  returns 0x00 (0000ms, 0890ms total)
T22F8 002:098 JLINK_SetBPEx(Addr = 0x20000000, Type = 0xFFFFFFF2)  returns 0x00000005 (0000ms, 0890ms total)
T22F8 002:098 JLINK_Go() -- CPU_ReadMem(4 bytes @ 0xE0001000) (0005ms, 0895ms total)
T22F8 002:103 JLINK_IsHalted()  returns FALSE (0001ms, 0896ms total)
T22F8 002:441 JLINK_IsHalted() -- CPU_ReadMem(2 bytes @ 0x20000000)  returns TRUE (0005ms, 0900ms total)
T22F8 002:446 JLINK_ReadReg(R15 (PC))  returns 0x20000000 (0000ms, 0895ms total)
T22F8 002:446 JLINK_ClrBPEx(BPHandle = 0x00000005)  returns 0x00 (0000ms, 0895ms total)
T22F8 002:446 JLINK_ReadReg(R0)  returns 0x00000000 (0001ms, 0896ms total)
T22F8 002:447 JLINK_WriteReg(R0, 0x00000001)  returns 0x00 (0000ms, 0896ms total)
T22F8 002:447 JLINK_WriteReg(R1, 0x00004000)  returns 0x00 (0000ms, 0896ms total)
T22F8 002:447 JLINK_WriteReg(R2, 0x000000FF)  returns 0x00 (0001ms, 0897ms total)
T22F8 002:448 JLINK_WriteReg(R3, 0x00000000)  returns 0x00 (0000ms, 0897ms total)
T22F8 002:448 JLINK_WriteReg(R4, 0x00000000)  returns 0x00 (0000ms, 0897ms total)
T22F8 002:448 JLINK_WriteReg(R5, 0x00000000)  returns 0x00 (0000ms, 0897ms total)
T22F8 002:448 JLINK_WriteReg(R6, 0x00000000)  returns 0x00 (0000ms, 0897ms total)
T22F8 002:448 JLINK_WriteReg(R7, 0x00000000)  returns 0x00 (0000ms, 0897ms total)
T22F8 002:448 JLINK_WriteReg(R8, 0x00000000)  returns 0x00 (0001ms, 0898ms total)
T22F8 002:449 JLINK_WriteReg(R9, 0x2000017C)  returns 0x00 (0000ms, 0898ms total)
T22F8 002:449 JLINK_WriteReg(R10, 0x00000000)  returns 0x00 (0000ms, 0898ms total)
T22F8 002:449 JLINK_WriteReg(R11, 0x00000000)  returns 0x00 (0000ms, 0898ms total)
T22F8 002:449 JLINK_WriteReg(R12, 0x00000000)  returns 0x00 (0000ms, 0898ms total)
T22F8 002:449 JLINK_WriteReg(R13 (SP), 0x20001000)  returns 0x00 (0000ms, 0898ms total)
T22F8 002:449 JLINK_WriteReg(R14, 0x20000001)  returns 0x00 (0000ms, 0898ms total)
T22F8 002:449 JLINK_WriteReg(R15 (PC), 0x20000082)  returns 0x00 (0001ms, 0899ms total)
T22F8 002:450 JLINK_WriteReg(XPSR, 0x01000000)  returns 0x00 (0000ms, 0899ms total)
T22F8 002:450 JLINK_WriteReg(MSP, 0x20001000)  returns 0x00 (0000ms, 0899ms total)
T22F8 002:450 JLINK_WriteReg(PSP, 0x20001000)  returns 0x00 (0000ms, 0899ms total)
T22F8 002:450 JLINK_WriteReg(CFBP, 0x00000000)  returns 0x00 (0000ms, 0899ms total)
T22F8 002:450 JLINK_SetBPEx(Addr = 0x20000000, Type = 0xFFFFFFF2)  returns 0x00000006 (0000ms, 0899ms total)
T22F8 002:450 JLINK_Go() -- CPU_ReadMem(4 bytes @ 0xE0001000) (0005ms, 0904ms total)
T22F8 002:455 JLINK_IsHalted() -- CPU_ReadMem(2 bytes @ 0x20000000)  returns TRUE (0005ms, 0909ms total)
T22F8 002:460 JLINK_ReadReg(R15 (PC))  returns 0x20000000 (0000ms, 0904ms total)
T22F8 002:460 JLINK_ClrBPEx(BPHandle = 0x00000006)  returns 0x00 (0001ms, 0905ms total)
T22F8 002:461 JLINK_ReadReg(R0)  returns 0x00000000 (0000ms, 0905ms total)
T22F8 002:539 JLINK_WriteMem(0x20000000, 0x0180 Bytes, ...) - Data: 00 BE 0A E0 0D 78 2D 06 68 40 08 24 40 00 00 D3 ... -- CPU_WriteMem(384 bytes @ 0x20000000)  returns 0x180 (0006ms, 0911ms total)
T22F8 002:545 JLINK_WriteReg(R0, 0x08000000)  returns 0x00 (0000ms, 0911ms total)
T22F8 002:545 JLINK_WriteReg(R1, 0x007A1200)  returns 0x00 (0000ms, 0911ms total)
T22F8 002:545 JLINK_WriteReg(R2, 0x00000002)  returns 0x00 (0000ms, 0911ms total)
T22F8 002:545 JLINK_WriteReg(R3, 0x00000000)  returns 0x00 (0000ms, 0911ms total)
T22F8 002:545 JLINK_WriteReg(R4, 0x00000000)  returns 0x00 (0000ms, 0911ms total)
T22F8 002:545 JLINK_WriteReg(R5, 0x00000000)  returns 0x00 (0000ms, 0911ms total)
T22F8 002:545 JLINK_WriteReg(R6, 0x00000000)  returns 0x00 (0001ms, 0912ms total)
T22F8 002:546 JLINK_WriteReg(R7, 0x00000000)  returns 0x00 (0000ms, 0912ms total)
T22F8 002:546 JLINK_WriteReg(R8, 0x00000000)  returns 0x00 (0000ms, 0912ms total)
T22F8 002:546 JLINK_WriteReg(R9, 0x2000017C)  returns 0x00 (0000ms, 0912ms total)
T22F8 002:546 JLINK_WriteReg(R10, 0x00000000)  returns 0x00 (0000ms, 0912ms total)
T22F8 002:546 JLINK_WriteReg(R11, 0x00000000)  returns 0x00 (0000ms, 0912ms total)
T22F8 002:546 JLINK_WriteReg(R12, 0x00000000)  returns 0x00 (0000ms, 0912ms total)
T22F8 002:546 JLINK_WriteReg(R13 (SP), 0x20001000)  returns 0x00 (0000ms, 0912ms total)
T22F8 002:546 JLINK_WriteReg(R14, 0x20000001)  returns 0x00 (0001ms, 0913ms total)
T22F8 002:547 JLINK_WriteReg(R15 (PC), 0x20000054)  returns 0x00 (0000ms, 0913ms total)
T22F8 002:547 JLINK_WriteReg(XPSR, 0x01000000)  returns 0x00 (0000ms, 0913ms total)
T22F8 002:547 JLINK_WriteReg(MSP, 0x20001000)  returns 0x00 (0000ms, 0913ms total)
T22F8 002:547 JLINK_WriteReg(PSP, 0x20001000)  returns 0x00 (0000ms, 0913ms total)
T22F8 002:547 JLINK_WriteReg(CFBP, 0x00000000)  returns 0x00 (0000ms, 0913ms total)
T22F8 002:547 JLINK_SetBPEx(Addr = 0x20000000, Type = 0xFFFFFFF2) -- CPU_ReadMem(4 bytes @ 0x20000000) -- CPU_WriteMem(4 bytes @ 0x20000000) -- CPU_ReadMem(4 bytes @ 0x20000000) -- CPU_WriteMem(4 bytes @ 0x20000000) -- CPU_ReadMem(2 bytes @ 0x20000000)  returns 0x00000007 (0006ms, 0919ms total)
T22F8 002:553 JLINK_Go() -- CPU_WriteMem(2 bytes @ 0x20000000) -- CPU_ReadMem(4 bytes @ 0xE0001000) (0005ms, 0924ms total)
T22F8 002:558 JLINK_IsHalted() -- CPU_ReadMem(2 bytes @ 0x20000000)  returns TRUE (0005ms, 0929ms total)
T22F8 002:563 JLINK_ReadReg(R15 (PC))  returns 0x20000000 (0000ms, 0924ms total)
T22F8 002:563 JLINK_ClrBPEx(BPHandle = 0x00000007)  returns 0x00 (0000ms, 0924ms total)
T22F8 002:563 JLINK_ReadReg(R0)  returns 0x00000000 (0000ms, 0924ms total)
T22F8 002:564 JLINK_WriteMem(0x20000180, 0x0400 Bytes, ...) - Data: C0 07 00 20 9D 01 00 08 A5 01 00 08 A7 01 00 08 ... -- CPU_WriteMem(1024 bytes @ 0x20000180)  returns 0x400 (0013ms, 0937ms total)
T22F8 002:577 JLINK_WriteReg(R0, 0x08000000)  returns 0x00 (0000ms, 0937ms total)
T22F8 002:577 JLINK_WriteReg(R1, 0x00000400)  returns 0x00 (0000ms, 0937ms total)
T22F8 002:577 JLINK_WriteReg(R2, 0x20000180)  returns 0x00 (0000ms, 0937ms total)
T22F8 002:577 JLINK_WriteReg(R3, 0x00000000)  returns 0x00 (0001ms, 0938ms total)
T22F8 002:578 JLINK_WriteReg(R4, 0x00000000)  returns 0x00 (0000ms, 0938ms total)
T22F8 002:578 JLINK_WriteReg(R5, 0x00000000)  returns 0x00 (0000ms, 0938ms total)
T22F8 002:578 JLINK_WriteReg(R6, 0x00000000)  returns 0x00 (0000ms, 0938ms total)
T22F8 002:578 JLINK_WriteReg(R7, 0x00000000)  returns 0x00 (0000ms, 0938ms total)
T22F8 002:578 JLINK_WriteReg(R8, 0x00000000)  returns 0x00 (0000ms, 0938ms total)
T22F8 002:578 JLINK_WriteReg(R9, 0x2000017C)  returns 0x00 (0000ms, 0938ms total)
T22F8 002:578 JLINK_WriteReg(R10, 0x00000000)  returns 0x00 (0000ms, 0938ms total)
T22F8 002:578 JLINK_WriteReg(R11, 0x00000000)  returns 0x00 (0001ms, 0939ms total)
T22F8 002:579 JLINK_WriteReg(R12, 0x00000000)  returns 0x00 (0000ms, 0939ms total)
T22F8 002:579 JLINK_WriteReg(R13 (SP), 0x20001000)  returns 0x00 (0000ms, 0939ms total)
T22F8 002:579 JLINK_WriteReg(R14, 0x20000001)  returns 0x00 (0000ms, 0939ms total)
T22F8 002:579 JLINK_WriteReg(R15 (PC), 0x20000108)  returns 0x00 (0000ms, 0939ms total)
T22F8 002:579 JLINK_WriteReg(XPSR, 0x01000000)  returns 0x00 (0001ms, 0940ms total)
T22F8 002:580 JLINK_WriteReg(MSP, 0x20001000)  returns 0x00 (0000ms, 0940ms total)
T22F8 002:580 JLINK_WriteReg(PSP, 0x20001000)  returns 0x00 (0000ms, 0940ms total)
T22F8 002:580 JLINK_WriteReg(CFBP, 0x00000000)  returns 0x00 (0000ms, 0940ms total)
T22F8 002:580 JLINK_SetBPEx(Addr = 0x20000000, Type = 0xFFFFFFF2)  returns 0x00000008 (0000ms, 0940ms total)
T22F8 002:580 JLINK_Go() -- CPU_ReadMem(4 bytes @ 0xE0001000) (0006ms, 0946ms total)
T22F8 002:586 JLINK_IsHalted()  returns FALSE (0001ms, 0947ms total)
T22F8 002:913 JLINK_IsHalted() -- CPU_ReadMem(2 bytes @ 0x20000000)  returns TRUE (0007ms, 0953ms total)
T22F8 002:920 JLINK_ReadReg(R15 (PC))  returns 0x20000000 (0000ms, 0946ms total)
T22F8 002:920 JLINK_ClrBPEx(BPHandle = 0x00000008)  returns 0x00 (0000ms, 0946ms total)
T22F8 002:920 JLINK_ReadReg(R0)  returns 0x00000000 (0000ms, 0946ms total)
T22F8 002:921 JLINK_WriteMem(0x20000180, 0x0400 Bytes, ...) - Data: 84 0A 97 0A 44 EA 81 54 47 EA 83 57 A4 FB 07 68 ... -- CPU_WriteMem(1024 bytes @ 0x20000180)  returns 0x400 (0014ms, 0961ms total)
T22F8 002:935 JLINK_WriteReg(R0, 0x08000400)  returns 0x00 (0000ms, 0961ms total)
T22F8 002:935 JLINK_WriteReg(R1, 0x00000400)  returns 0x00 (0000ms, 0961ms total)
T22F8 002:935 JLINK_WriteReg(R2, 0x20000180)  returns 0x00 (0000ms, 0961ms total)
T22F8 002:935 JLINK_WriteReg(R3, 0x00000000)  returns 0x00 (0000ms, 0961ms total)
T22F8 002:935 JLINK_WriteReg(R4, 0x00000000)  returns 0x00 (0000ms, 0961ms total)
T22F8 002:935 JLINK_WriteReg(R5, 0x00000000)  returns 0x00 (0000ms, 0961ms total)
T22F8 002:935 JLINK_WriteReg(R6, 0x00000000)  returns 0x00 (0000ms, 0961ms total)
T22F8 002:935 JLINK_WriteReg(R7, 0x00000000)  returns 0x00 (0001ms, 0962ms total)
T22F8 002:936 JLINK_WriteReg(R8, 0x00000000)  returns 0x00 (0000ms, 0962ms total)
T22F8 002:936 JLINK_WriteReg(R9, 0x2000017C)  returns 0x00 (0000ms, 0962ms total)
T22F8 002:936 JLINK_WriteReg(R10, 0x00000000)  returns 0x00 (0000ms, 0962ms total)
T22F8 002:936 JLINK_WriteReg(R11, 0x00000000)  returns 0x00 (0000ms, 0962ms total)
T22F8 002:936 JLINK_WriteReg(R12, 0x00000000)  returns 0x00 (0000ms, 0962ms total)
T22F8 002:936 JLINK_WriteReg(R13 (SP), 0x20001000)  returns 0x00 (0000ms, 0962ms total)
T22F8 002:936 JLINK_WriteReg(R14, 0x20000001)  returns 0x00 (0001ms, 0963ms total)
T22F8 002:937 JLINK_WriteReg(R15 (PC), 0x20000108)  returns 0x00 (0000ms, 0963ms total)
T22F8 002:937 JLINK_WriteReg(XPSR, 0x01000000)  returns 0x00 (0000ms, 0963ms total)
T22F8 002:937 JLINK_WriteReg(MSP, 0x20001000)  returns 0x00 (0000ms, 0963ms total)
T22F8 002:937 JLINK_WriteReg(PSP, 0x20001000)  returns 0x00 (0000ms, 0963ms total)
T22F8 002:937 JLINK_WriteReg(CFBP, 0x00000000)  returns 0x00 (0000ms, 0963ms total)
T22F8 002:937 JLINK_SetBPEx(Addr = 0x20000000, Type = 0xFFFFFFF2)  returns 0x00000009 (0000ms, 0963ms total)
T22F8 002:937 JLINK_Go() -- CPU_ReadMem(4 bytes @ 0xE0001000) (0006ms, 0969ms total)
T22F8 002:944 JLINK_IsHalted()  returns FALSE (0001ms, 0971ms total)
T22F8 003:230 JLINK_IsHalted() -- CPU_ReadMem(2 bytes @ 0x20000000)  returns TRUE (0006ms, 0976ms total)
T22F8 003:236 JLINK_ReadReg(R15 (PC))  returns 0x20000000 (0001ms, 0971ms total)
T22F8 003:237 JLINK_ClrBPEx(BPHandle = 0x00000009)  returns 0x00 (0000ms, 0971ms total)
T22F8 003:237 JLINK_ReadReg(R0)  returns 0x00000000 (0000ms, 0971ms total)
T22F8 003:238 JLINK_WriteMem(0x20000180, 0x0400 Bytes, ...) - Data: 00 20 01 46 E9 E7 01 05 10 19 69 41 DD E9 08 45 ... -- CPU_WriteMem(1024 bytes @ 0x20000180)  returns 0x400 (0013ms, 0984ms total)
T22F8 003:251 JLINK_WriteReg(R0, 0x08000800)  returns 0x00 (0000ms, 0984ms total)
T22F8 003:251 JLINK_WriteReg(R1, 0x00000400)  returns 0x00 (0000ms, 0984ms total)
T22F8 003:251 JLINK_WriteReg(R2, 0x20000180)  returns 0x00 (0000ms, 0984ms total)
T22F8 003:251 JLINK_WriteReg(R3, 0x00000000)  returns 0x00 (0000ms, 0984ms total)
T22F8 003:251 JLINK_WriteReg(R4, 0x00000000)  returns 0x00 (0000ms, 0984ms total)
T22F8 003:251 JLINK_WriteReg(R5, 0x00000000)  returns 0x00 (0001ms, 0985ms total)
T22F8 003:252 JLINK_WriteReg(R6, 0x00000000)  returns 0x00 (0000ms, 0985ms total)
T22F8 003:252 JLINK_WriteReg(R7, 0x00000000)  returns 0x00 (0000ms, 0985ms total)
T22F8 003:252 JLINK_WriteReg(R8, 0x00000000)  returns 0x00 (0000ms, 0985ms total)
T22F8 003:252 JLINK_WriteReg(R9, 0x2000017C)  returns 0x00 (0000ms, 0985ms total)
T22F8 003:252 JLINK_WriteReg(R10, 0x00000000)  returns 0x00 (0000ms, 0985ms total)
T22F8 003:252 JLINK_WriteReg(R11, 0x00000000)  returns 0x00 (0000ms, 0985ms total)
T22F8 003:252 JLINK_WriteReg(R12, 0x00000000)  returns 0x00 (0000ms, 0985ms total)
T22F8 003:252 JLINK_WriteReg(R13 (SP), 0x20001000)  returns 0x00 (0000ms, 0985ms total)
T22F8 003:252 JLINK_WriteReg(R14, 0x20000001)  returns 0x00 (0001ms, 0986ms total)
T22F8 003:253 JLINK_WriteReg(R15 (PC), 0x20000108)  returns 0x00 (0000ms, 0986ms total)
T22F8 003:253 JLINK_WriteReg(XPSR, 0x01000000)  returns 0x00 (0000ms, 0986ms total)
T22F8 003:253 JLINK_WriteReg(MSP, 0x20001000)  returns 0x00 (0000ms, 0986ms total)
T22F8 003:253 JLINK_WriteReg(PSP, 0x20001000)  returns 0x00 (0000ms, 0986ms total)
T22F8 003:253 JLINK_WriteReg(CFBP, 0x00000000)  returns 0x00 (0000ms, 0986ms total)
T22F8 003:253 JLINK_SetBPEx(Addr = 0x20000000, Type = 0xFFFFFFF2)  returns 0x0000000A (0000ms, 0986ms total)
T22F8 003:253 JLINK_Go() -- CPU_ReadMem(4 bytes @ 0xE0001000) (0005ms, 0991ms total)
T22F8 003:258 JLINK_IsHalted()  returns FALSE (0001ms, 0992ms total)
T22F8 003:679 JLINK_IsHalted() -- CPU_ReadMem(2 bytes @ 0x20000000)  returns TRUE (0005ms, 0996ms total)
T22F8 003:684 JLINK_ReadReg(R15 (PC))  returns 0x20000000 (0000ms, 0991ms total)
T22F8 003:685 JLINK_ClrBPEx(BPHandle = 0x0000000A)  returns 0x00 (0000ms, 0991ms total)
T22F8 003:685 JLINK_ReadReg(R0)  returns 0x00000000 (0000ms, 0991ms total)
T22F8 003:686 JLINK_WriteMem(0x20000180, 0x0400 Bytes, ...) - Data: FF F7 F9 FC 40 49 08 60 A1 7B 09 02 09 B2 E2 7B ... -- CPU_WriteMem(1024 bytes @ 0x20000180)  returns 0x400 (0013ms, 1004ms total)
T22F8 003:700 JLINK_WriteReg(R0, 0x08000C00)  returns 0x00 (0000ms, 1004ms total)
T22F8 003:700 JLINK_WriteReg(R1, 0x00000400)  returns 0x00 (0001ms, 1005ms total)
T22F8 003:701 JLINK_WriteReg(R2, 0x20000180)  returns 0x00 (0000ms, 1005ms total)
T22F8 003:701 JLINK_WriteReg(R3, 0x00000000)  returns 0x00 (0000ms, 1005ms total)
T22F8 003:701 JLINK_WriteReg(R4, 0x00000000)  returns 0x00 (0000ms, 1005ms total)
T22F8 003:701 JLINK_WriteReg(R5, 0x00000000)  returns 0x00 (0000ms, 1005ms total)
T22F8 003:701 JLINK_WriteReg(R6, 0x00000000)  returns 0x00 (0001ms, 1006ms total)
T22F8 003:702 JLINK_WriteReg(R7, 0x00000000)  returns 0x00 (0000ms, 1006ms total)
T22F8 003:702 JLINK_WriteReg(R8, 0x00000000)  returns 0x00 (0000ms, 1006ms total)
T22F8 003:702 JLINK_WriteReg(R9, 0x2000017C)  returns 0x00 (0000ms, 1006ms total)
T22F8 003:702 JLINK_WriteReg(R10, 0x00000000)  returns 0x00 (0000ms, 1006ms total)
T22F8 003:702 JLINK_WriteReg(R11, 0x00000000)  returns 0x00 (0000ms, 1006ms total)
T22F8 003:702 JLINK_WriteReg(R12, 0x00000000)  returns 0x00 (0001ms, 1007ms total)
T22F8 003:703 JLINK_WriteReg(R13 (SP), 0x20001000)  returns 0x00 (0000ms, 1007ms total)
T22F8 003:703 JLINK_WriteReg(R14, 0x20000001)  returns 0x00 (0000ms, 1007ms total)
T22F8 003:703 JLINK_WriteReg(R15 (PC), 0x20000108)  returns 0x00 (0000ms, 1007ms total)
T22F8 003:703 JLINK_WriteReg(XPSR, 0x01000000)  returns 0x00 (0000ms, 1007ms total)
T22F8 003:703 JLINK_WriteReg(MSP, 0x20001000)  returns 0x00 (0000ms, 1007ms total)
T22F8 003:703 JLINK_WriteReg(PSP, 0x20001000)  returns 0x00 (0000ms, 1007ms total)
T22F8 003:703 JLINK_WriteReg(CFBP, 0x00000000)  returns 0x00 (0001ms, 1008ms total)
T22F8 003:704 JLINK_SetBPEx(Addr = 0x20000000, Type = 0xFFFFFFF2)  returns 0x0000000B (0000ms, 1008ms total)
T22F8 003:704 JLINK_Go() -- CPU_ReadMem(4 bytes @ 0xE0001000) (0005ms, 1013ms total)
T22F8 003:709 JLINK_IsHalted()  returns FALSE (0001ms, 1014ms total)
T22F8 004:072 JLINK_IsHalted() -- CPU_ReadMem(2 bytes @ 0x20000000)  returns TRUE (0005ms, 1018ms total)
T22F8 004:077 JLINK_ReadReg(R15 (PC))  returns 0x20000000 (0001ms, 1014ms total)
T22F8 004:078 JLINK_ClrBPEx(BPHandle = 0x0000000B)  returns 0x00 (0000ms, 1014ms total)
T22F8 004:078 JLINK_ReadReg(R0)  returns 0x00000000 (0000ms, 1014ms total)
T22F8 004:079 JLINK_WriteMem(0x20000180, 0x0400 Bytes, ...) - Data: 64 1C 42 54 9F ED 6D 0A 28 EE 80 0A BD EE C0 0A ... -- CPU_WriteMem(1024 bytes @ 0x20000180)  returns 0x400 (0013ms, 1027ms total)
T22F8 004:092 JLINK_WriteReg(R0, 0x08001000)  returns 0x00 (0000ms, 1027ms total)
T22F8 004:092 JLINK_WriteReg(R1, 0x00000400)  returns 0x00 (0000ms, 1027ms total)
T22F8 004:092 JLINK_WriteReg(R2, 0x20000180)  returns 0x00 (0000ms, 1027ms total)
T22F8 004:092 JLINK_WriteReg(R3, 0x00000000)  returns 0x00 (0000ms, 1027ms total)
T22F8 004:092 JLINK_WriteReg(R4, 0x00000000)  returns 0x00 (0000ms, 1027ms total)
T22F8 004:092 JLINK_WriteReg(R5, 0x00000000)  returns 0x00 (0000ms, 1027ms total)
T22F8 004:093 JLINK_WriteReg(R6, 0x00000000)  returns 0x00 (0000ms, 1028ms total)
T22F8 004:093 JLINK_WriteReg(R7, 0x00000000)  returns 0x00 (0000ms, 1028ms total)
T22F8 004:093 JLINK_WriteReg(R8, 0x00000000)  returns 0x00 (0000ms, 1028ms total)
T22F8 004:093 JLINK_WriteReg(R9, 0x2000017C)  returns 0x00 (0000ms, 1028ms total)
T22F8 004:093 JLINK_WriteReg(R10, 0x00000000)  returns 0x00 (0000ms, 1028ms total)
T22F8 004:093 JLINK_WriteReg(R11, 0x00000000)  returns 0x00 (0000ms, 1028ms total)
T22F8 004:093 JLINK_WriteReg(R12, 0x00000000)  returns 0x00 (0000ms, 1028ms total)
T22F8 004:093 JLINK_WriteReg(R13 (SP), 0x20001000)  returns 0x00 (0000ms, 1028ms total)
T22F8 004:093 JLINK_WriteReg(R14, 0x20000001)  returns 0x00 (0001ms, 1029ms total)
T22F8 004:094 JLINK_WriteReg(R15 (PC), 0x20000108)  returns 0x00 (0000ms, 1029ms total)
T22F8 004:094 JLINK_WriteReg(XPSR, 0x01000000)  returns 0x00 (0000ms, 1029ms total)
T22F8 004:094 JLINK_WriteReg(MSP, 0x20001000)  returns 0x00 (0000ms, 1029ms total)
T22F8 004:094 JLINK_WriteReg(PSP, 0x20001000)  returns 0x00 (0000ms, 1029ms total)
T22F8 004:094 JLINK_WriteReg(CFBP, 0x00000000)  returns 0x00 (0000ms, 1029ms total)
T22F8 004:094 JLINK_SetBPEx(Addr = 0x20000000, Type = 0xFFFFFFF2)  returns 0x0000000C (0000ms, 1029ms total)
T22F8 004:094 JLINK_Go() -- CPU_ReadMem(4 bytes @ 0xE0001000) (0006ms, 1035ms total)
T22F8 004:100 JLINK_IsHalted()  returns FALSE (0002ms, 1037ms total)
T22F8 004:480 JLINK_IsHalted() -- CPU_ReadMem(2 bytes @ 0x20000000)  returns TRUE (0006ms, 1041ms total)
T22F8 004:486 JLINK_ReadReg(R15 (PC))  returns 0x20000000 (0001ms, 1036ms total)
T22F8 004:487 JLINK_ClrBPEx(BPHandle = 0x0000000C)  returns 0x00 (0000ms, 1036ms total)
T22F8 004:487 JLINK_ReadReg(R0)  returns 0x00000000 (0000ms, 1036ms total)
T22F8 004:488 JLINK_WriteMem(0x20000180, 0x0400 Bytes, ...) - Data: 80 ED 00 0A 62 48 B0 F9 00 00 00 EE 10 0A B8 EE ... -- CPU_WriteMem(1024 bytes @ 0x20000180)  returns 0x400 (0013ms, 1049ms total)
T22F8 004:501 JLINK_WriteReg(R0, 0x08001400)  returns 0x00 (0000ms, 1049ms total)
T22F8 004:501 JLINK_WriteReg(R1, 0x00000400)  returns 0x00 (0000ms, 1049ms total)
T22F8 004:501 JLINK_WriteReg(R2, 0x20000180)  returns 0x00 (0000ms, 1049ms total)
T22F8 004:501 JLINK_WriteReg(R3, 0x00000000)  returns 0x00 (0000ms, 1049ms total)
T22F8 004:501 JLINK_WriteReg(R4, 0x00000000)  returns 0x00 (0000ms, 1049ms total)
T22F8 004:501 JLINK_WriteReg(R5, 0x00000000)  returns 0x00 (0001ms, 1050ms total)
T22F8 004:502 JLINK_WriteReg(R6, 0x00000000)  returns 0x00 (0000ms, 1050ms total)
T22F8 004:502 JLINK_WriteReg(R7, 0x00000000)  returns 0x00 (0000ms, 1050ms total)
T22F8 004:502 JLINK_WriteReg(R8, 0x00000000)  returns 0x00 (0000ms, 1050ms total)
T22F8 004:502 JLINK_WriteReg(R9, 0x2000017C)  returns 0x00 (0000ms, 1050ms total)
T22F8 004:502 JLINK_WriteReg(R10, 0x00000000)  returns 0x00 (0000ms, 1050ms total)
T22F8 004:502 JLINK_WriteReg(R11, 0x00000000)  returns 0x00 (0000ms, 1050ms total)
T22F8 004:502 JLINK_WriteReg(R12, 0x00000000)  returns 0x00 (0000ms, 1050ms total)
T22F8 004:502 JLINK_WriteReg(R13 (SP), 0x20001000)  returns 0x00 (0001ms, 1051ms total)
T22F8 004:503 JLINK_WriteReg(R14, 0x20000001)  returns 0x00 (0000ms, 1051ms total)
T22F8 004:503 JLINK_WriteReg(R15 (PC), 0x20000108)  returns 0x00 (0000ms, 1051ms total)
T22F8 004:503 JLINK_WriteReg(XPSR, 0x01000000)  returns 0x00 (0000ms, 1051ms total)
T22F8 004:503 JLINK_WriteReg(MSP, 0x20001000)  returns 0x00 (0000ms, 1051ms total)
T22F8 004:503 JLINK_WriteReg(PSP, 0x20001000)  returns 0x00 (0000ms, 1051ms total)
T22F8 004:503 JLINK_WriteReg(CFBP, 0x00000000)  returns 0x00 (0000ms, 1051ms total)
T22F8 004:503 JLINK_SetBPEx(Addr = 0x20000000, Type = 0xFFFFFFF2)  returns 0x0000000D (0000ms, 1051ms total)
T22F8 004:503 JLINK_Go() -- CPU_ReadMem(4 bytes @ 0xE0001000) (0005ms, 1056ms total)
T22F8 004:508 JLINK_IsHalted()  returns FALSE (0002ms, 1058ms total)
T22F8 004:926 JLINK_IsHalted() -- CPU_ReadMem(2 bytes @ 0x20000000)  returns TRUE (0005ms, 1061ms total)
T22F8 004:932 JLINK_ReadReg(R15 (PC))  returns 0x20000000 (0000ms, 1056ms total)
T22F8 004:932 JLINK_ClrBPEx(BPHandle = 0x0000000D)  returns 0x00 (0000ms, 1056ms total)
T22F8 004:932 JLINK_ReadReg(R0)  returns 0x00000000 (0000ms, 1056ms total)
T22F8 004:934 JLINK_WriteMem(0x20000180, 0x0400 Bytes, ...) - Data: 90 ED 00 4A 28 48 D0 ED 00 3A 28 48 90 ED 00 3A ... -- CPU_WriteMem(1024 bytes @ 0x20000180)  returns 0x400 (0012ms, 1068ms total)
T22F8 004:946 JLINK_WriteReg(R0, 0x08001800)  returns 0x00 (0001ms, 1069ms total)
T22F8 004:947 JLINK_WriteReg(R1, 0x00000400)  returns 0x00 (0000ms, 1069ms total)
T22F8 004:947 JLINK_WriteReg(R2, 0x20000180)  returns 0x00 (0000ms, 1069ms total)
T22F8 004:947 JLINK_WriteReg(R3, 0x00000000)  returns 0x00 (0000ms, 1069ms total)
T22F8 004:947 JLINK_WriteReg(R4, 0x00000000)  returns 0x00 (0000ms, 1069ms total)
T22F8 004:947 JLINK_WriteReg(R5, 0x00000000)  returns 0x00 (0000ms, 1069ms total)
T22F8 004:947 JLINK_WriteReg(R6, 0x00000000)  returns 0x00 (0000ms, 1069ms total)
T22F8 004:947 JLINK_WriteReg(R7, 0x00000000)  returns 0x00 (0000ms, 1069ms total)
T22F8 004:947 JLINK_WriteReg(R8, 0x00000000)  returns 0x00 (0000ms, 1069ms total)
T22F8 004:947 JLINK_WriteReg(R9, 0x2000017C)  returns 0x00 (0001ms, 1070ms total)
T22F8 004:948 JLINK_WriteReg(R10, 0x00000000)  returns 0x00 (0000ms, 1070ms total)
T22F8 004:948 JLINK_WriteReg(R11, 0x00000000)  returns 0x00 (0000ms, 1070ms total)
T22F8 004:948 JLINK_WriteReg(R12, 0x00000000)  returns 0x00 (0000ms, 1070ms total)
T22F8 004:948 JLINK_WriteReg(R13 (SP), 0x20001000)  returns 0x00 (0000ms, 1070ms total)
T22F8 004:948 JLINK_WriteReg(R14, 0x20000001)  returns 0x00 (0000ms, 1070ms total)
T22F8 004:948 JLINK_WriteReg(R15 (PC), 0x20000108)  returns 0x00 (0000ms, 1070ms total)
T22F8 004:948 JLINK_WriteReg(XPSR, 0x01000000)  returns 0x00 (0001ms, 1071ms total)
T22F8 004:949 JLINK_WriteReg(MSP, 0x20001000)  returns 0x00 (0000ms, 1071ms total)
T22F8 004:949 JLINK_WriteReg(PSP, 0x20001000)  returns 0x00 (0000ms, 1071ms total)
T22F8 004:949 JLINK_WriteReg(CFBP, 0x00000000)  returns 0x00 (0000ms, 1071ms total)
T22F8 004:949 JLINK_SetBPEx(Addr = 0x20000000, Type = 0xFFFFFFF2)  returns 0x0000000E (0000ms, 1071ms total)
T22F8 004:949 JLINK_Go() -- CPU_ReadMem(4 bytes @ 0xE0001000) (0005ms, 1076ms total)
T22F8 004:954 JLINK_IsHalted()  returns FALSE (0001ms, 1077ms total)
T22F8 005:353 JLINK_IsHalted() -- CPU_ReadMem(2 bytes @ 0x20000000)  returns TRUE (0005ms, 1081ms total)
T22F8 005:358 JLINK_ReadReg(R15 (PC))  returns 0x20000000 (0000ms, 1076ms total)
T22F8 005:358 JLINK_ClrBPEx(BPHandle = 0x0000000E)  returns 0x00 (0001ms, 1077ms total)
T22F8 005:359 JLINK_ReadReg(R0)  returns 0x00000000 (0000ms, 1077ms total)
T22F8 005:360 JLINK_WriteMem(0x20000180, 0x0400 Bytes, ...) - Data: FE F7 B6 FC 41 EC 19 0B 9F ED 12 0B 53 EC 10 2B ... -- CPU_WriteMem(1024 bytes @ 0x20000180)  returns 0x400 (0013ms, 1090ms total)
T22F8 005:373 JLINK_WriteReg(R0, 0x08001C00)  returns 0x00 (0000ms, 1090ms total)
T22F8 005:373 JLINK_WriteReg(R1, 0x00000400)  returns 0x00 (0000ms, 1090ms total)
T22F8 005:373 JLINK_WriteReg(R2, 0x20000180)  returns 0x00 (0000ms, 1090ms total)
T22F8 005:373 JLINK_WriteReg(R3, 0x00000000)  returns 0x00 (0000ms, 1090ms total)
T22F8 005:374 JLINK_WriteReg(R4, 0x00000000)  returns 0x00 (0000ms, 1091ms total)
T22F8 005:374 JLINK_WriteReg(R5, 0x00000000)  returns 0x00 (0000ms, 1091ms total)
T22F8 005:374 JLINK_WriteReg(R6, 0x00000000)  returns 0x00 (0000ms, 1091ms total)
T22F8 005:374 JLINK_WriteReg(R7, 0x00000000)  returns 0x00 (0000ms, 1091ms total)
T22F8 005:374 JLINK_WriteReg(R8, 0x00000000)  returns 0x00 (0000ms, 1091ms total)
T22F8 005:374 JLINK_WriteReg(R9, 0x2000017C)  returns 0x00 (0000ms, 1091ms total)
T22F8 005:374 JLINK_WriteReg(R10, 0x00000000)  returns 0x00 (0000ms, 1091ms total)
T22F8 005:374 JLINK_WriteReg(R11, 0x00000000)  returns 0x00 (0000ms, 1091ms total)
T22F8 005:374 JLINK_WriteReg(R12, 0x00000000)  returns 0x00 (0001ms, 1092ms total)
T22F8 005:375 JLINK_WriteReg(R13 (SP), 0x20001000)  returns 0x00 (0000ms, 1092ms total)
T22F8 005:375 JLINK_WriteReg(R14, 0x20000001)  returns 0x00 (0000ms, 1092ms total)
T22F8 005:375 JLINK_WriteReg(R15 (PC), 0x20000108)  returns 0x00 (0000ms, 1092ms total)
T22F8 005:375 JLINK_WriteReg(XPSR, 0x01000000)  returns 0x00 (0000ms, 1092ms total)
T22F8 005:375 JLINK_WriteReg(MSP, 0x20001000)  returns 0x00 (0000ms, 1092ms total)
T22F8 005:375 JLINK_WriteReg(PSP, 0x20001000)  returns 0x00 (0000ms, 1092ms total)
T22F8 005:375 JLINK_WriteReg(CFBP, 0x00000000)  returns 0x00 (0001ms, 1093ms total)
T22F8 005:376 JLINK_SetBPEx(Addr = 0x20000000, Type = 0xFFFFFFF2)  returns 0x0000000F (0000ms, 1093ms total)
T22F8 005:376 JLINK_Go() -- CPU_ReadMem(4 bytes @ 0xE0001000) (0005ms, 1098ms total)
T22F8 005:381 JLINK_IsHalted()  returns FALSE (0001ms, 1099ms total)
T22F8 005:746 JLINK_IsHalted() -- CPU_ReadMem(2 bytes @ 0x20000000)  returns TRUE (0006ms, 1104ms total)
T22F8 005:753 JLINK_ReadReg(R15 (PC))  returns 0x20000000 (0000ms, 1098ms total)
T22F8 005:753 JLINK_ClrBPEx(BPHandle = 0x0000000F)  returns 0x00 (0001ms, 1099ms total)
T22F8 005:754 JLINK_ReadReg(R0)  returns 0x00000000 (0000ms, 1099ms total)
T22F8 005:756 JLINK_WriteMem(0x20000180, 0x0400 Bytes, ...) - Data: 01 21 08 46 00 F0 2C F9 01 21 10 20 00 F0 08 F9 ... -- CPU_WriteMem(1024 bytes @ 0x20000180)  returns 0x400 (0013ms, 1112ms total)
T22F8 005:770 JLINK_WriteReg(R0, 0x08002000)  returns 0x00 (0000ms, 1113ms total)
T22F8 005:770 JLINK_WriteReg(R1, 0x00000400)  returns 0x00 (0000ms, 1113ms total)
T22F8 005:770 JLINK_WriteReg(R2, 0x20000180)  returns 0x00 (0000ms, 1113ms total)
T22F8 005:770 JLINK_WriteReg(R3, 0x00000000)  returns 0x00 (0000ms, 1113ms total)
T22F8 005:770 JLINK_WriteReg(R4, 0x00000000)  returns 0x00 (0000ms, 1113ms total)
T22F8 005:770 JLINK_WriteReg(R5, 0x00000000)  returns 0x00 (0001ms, 1114ms total)
T22F8 005:771 JLINK_WriteReg(R6, 0x00000000)  returns 0x00 (0000ms, 1114ms total)
T22F8 005:771 JLINK_WriteReg(R7, 0x00000000)  returns 0x00 (0000ms, 1114ms total)
T22F8 005:771 JLINK_WriteReg(R8, 0x00000000)  returns 0x00 (0000ms, 1114ms total)
T22F8 005:771 JLINK_WriteReg(R9, 0x2000017C)  returns 0x00 (0000ms, 1114ms total)
T22F8 005:771 JLINK_WriteReg(R10, 0x00000000)  returns 0x00 (0000ms, 1114ms total)
T22F8 005:771 JLINK_WriteReg(R11, 0x00000000)  returns 0x00 (0001ms, 1115ms total)
T22F8 005:772 JLINK_WriteReg(R12, 0x00000000)  returns 0x00 (0000ms, 1115ms total)
T22F8 005:772 JLINK_WriteReg(R13 (SP), 0x20001000)  returns 0x00 (0000ms, 1115ms total)
T22F8 005:772 JLINK_WriteReg(R14, 0x20000001)  returns 0x00 (0000ms, 1115ms total)
T22F8 005:772 JLINK_WriteReg(R15 (PC), 0x20000108)  returns 0x00 (0000ms, 1115ms total)
T22F8 005:772 JLINK_WriteReg(XPSR, 0x01000000)  returns 0x00 (0000ms, 1115ms total)
T22F8 005:772 JLINK_WriteReg(MSP, 0x20001000)  returns 0x00 (0001ms, 1116ms total)
T22F8 005:773 JLINK_WriteReg(PSP, 0x20001000)  returns 0x00 (0000ms, 1116ms total)
T22F8 005:773 JLINK_WriteReg(CFBP, 0x00000000)  returns 0x00 (0000ms, 1116ms total)
T22F8 005:773 JLINK_SetBPEx(Addr = 0x20000000, Type = 0xFFFFFFF2)  returns 0x00000010 (0000ms, 1116ms total)
T22F8 005:773 JLINK_Go() -- CPU_ReadMem(4 bytes @ 0xE0001000) (0006ms, 1122ms total)
T22F8 005:779 JLINK_IsHalted()  returns FALSE (0001ms, 1123ms total)
T22F8 006:221 JLINK_IsHalted() -- CPU_ReadMem(2 bytes @ 0x20000000)  returns TRUE (0006ms, 1128ms total)
T22F8 006:227 JLINK_ReadReg(R15 (PC))  returns 0x20000000 (0000ms, 1122ms total)
